T2FC4 000:189.111   SEGGER J-Link V6.54c Log File
T2FC4 000:190.376   DLL Compiled: Nov  7 2019 17:01:02
T2FC4 000:190.404   Logging started @ 2020-07-18 12:32
T2FC4 000:190.433 JLINK_SetWarnOutHandler(...)
T2FC4 000:190.942 - 0.523ms
T2FC4 000:191.369 JLINK_OpenEx(...)
T2FC4 000:192.894   Firmware: J-Link V9 compiled Jun  2 2222 22:22:22
T2FC4 000:207.543   Hardware: V9.40
T2FC4 000:207.589   S/N: 59401308
T2FC4 000:207.626   OEM: SEGGER
T2FC4 000:207.659   Feature(s): GDB, RDI, FlashBP, FlashDL, JFlash, RDDI
T2FC4 000:209.125   TELNET listener socket opened on port 19021
T2FC4 000:237.386   WEBSRV Starting webserver
T2FC4 000:237.632   WEBSRV Webserver running on local port 19080
T2FC4 000:237.685 - 46.331ms returns "O.K."
T2FC4 000:237.740 JLINK_SetErrorOutHandler(...)
T2FC4 000:237.772 - 0.048ms
T2FC4 000:237.836 JLINK_ExecCommand("ProjectFile = "D:\STM32F4\HAL\Wangluo\Control2\MDK-ARM\JLinkSettings.ini"", ...). 
T2FC4 000:297.450   Ref file found at: C:\APP\Keil_v5\ARM\Segger\JLinkDevices.ref
T2FC4 000:298.448   XML referenced by ref file: C:\APP\Keil_v5\JLinkDevices.xml
T2FC4 000:306.173   C:\APP\Keil_v5\JLinkDevices.xml evaluated successfully.
T2FC4 000:485.073 - 247.274ms returns 0x00
T2FC4 000:487.057 JLINK_ExecCommand("Device = STM32F407ZGTx", ...). 
T2FC4 000:493.067   Device "STM32F407ZG" selected.
T2FC4 000:494.973 - 7.896ms returns 0x00
T2FC4 000:495.021 JLINK_ExecCommand("DisableConnectionTimeout", ...). 
T2FC4 000:495.063 - 0.018ms returns 0x01
T2FC4 000:495.092 JLINK_GetHardwareVersion()
T2FC4 000:495.122 - 0.041ms returns 0x16F30
T2FC4 000:495.152 JLINK_GetDLLVersion()  returns 65403
T2FC4 000:495.472 JLINK_GetFirmwareString(...)
T2FC4 000:495.495 - 0.035ms
T2FC4 000:500.752 JLINK_GetDLLVersion()  returns 65403
T2FC4 000:500.789 JLINK_GetCompileDateTime()
T2FC4 000:500.812 - 0.033ms
T2FC4 000:502.374 JLINK_GetFirmwareString(...)
T2FC4 000:502.412 - 0.050ms
T2FC4 000:504.166 JLINK_GetHardwareVersion()
T2FC4 000:504.201 - 0.047ms returns 0x16F30
T2FC4 000:510.937 JLINK_TIF_Select(JLINKARM_TIF_SWD)
T2FC4 000:512.400 - 1.498ms returns 0x00
T2FC4 000:513.019 JLINK_SetSpeed(500)
T2FC4 000:513.276 - 0.287ms
T2FC4 000:513.325 JLINK_GetId()
T2FC4 000:517.658   Found SW-DP with ID 0x2BA01477
T2FC4 000:537.731   Found SW-DP with ID 0x2BA01477
T2FC4 000:544.589   Scanning AP map to find all available APs
T2FC4 000:549.980   AP[1]: Stopped AP scan as end of AP map has been reached
T2FC4 000:552.029   AP[0]: AHB-AP (IDR: 0x24770011)
T2FC4 000:553.819   Iterating through AP map to find AHB-AP to use
T2FC4 000:562.219   AP[0]: Core found
T2FC4 000:563.910   AP[0]: AHB-AP ROM base: 0xE00FF000
T2FC4 000:568.806   CPUID register: 0x410FC241. Implementer code: 0x41 (ARM)
T2FC4 000:570.458   Found Cortex-M4 r0p1, Little endian.
T2FC4 000:672.412    -- Max. mem block: 0x000110B8
T2FC4 000:672.601    -- CPU_ReadMem(4 bytes @ 0xE000EDF0)
T2FC4 000:674.028    -- CPU_WriteMem(4 bytes @ 0xE000EDF0)
T2FC4 000:675.121    -- CPU_ReadMem(4 bytes @ 0xE0002000)
T2FC4 000:681.071   FPUnit: 6 code (BP) slots and 2 literal slots
T2FC4 000:681.183    -- CPU_ReadMem(4 bytes @ 0xE000EDFC)
T2FC4 000:682.270    -- CPU_WriteMem(4 bytes @ 0xE000EDFC)
T2FC4 000:683.407    -- CPU_ReadMem(4 bytes @ 0xE0001000)
T2FC4 000:684.483    -- CPU_WriteMem(4 bytes @ 0xE0001000)
T2FC4 000:685.586    -- CPU_ReadMem(4 bytes @ 0xE000ED88)
T2FC4 000:686.667    -- CPU_WriteMem(4 bytes @ 0xE000ED88)
T2FC4 000:687.725    -- CPU_ReadMem(4 bytes @ 0xE000ED88)
T2FC4 000:688.842    -- CPU_WriteMem(4 bytes @ 0xE000ED88)
T2FC4 000:694.385   CoreSight components:
T2FC4 000:699.494   ROMTbl[0] @ E00FF000
T2FC4 000:699.646    -- CPU_ReadMem(16 bytes @ 0xE00FF000)
T2FC4 000:701.026    -- CPU_ReadMem(16 bytes @ 0xE000EFF0)
T2FC4 000:702.438    -- CPU_ReadMem(16 bytes @ 0xE000EFE0)
T2FC4 000:712.051   ROMTbl[0][0]: E000E000, CID: B105E00D, PID: 000BB00C SCS-M7
T2FC4 000:712.179    -- CPU_ReadMem(16 bytes @ 0xE0001FF0)
T2FC4 000:713.611    -- CPU_ReadMem(16 bytes @ 0xE0001FE0)
T2FC4 000:719.887   ROMTbl[0][1]: E0001000, CID: B105E00D, PID: 003BB002 DWT
T2FC4 000:720.161    -- CPU_ReadMem(16 bytes @ 0xE0002FF0)
T2FC4 000:721.622    -- CPU_ReadMem(16 bytes @ 0xE0002FE0)
T2FC4 000:725.768   ROMTbl[0][2]: E0002000, CID: B105E00D, PID: 002BB003 FPB
T2FC4 000:725.837    -- CPU_ReadMem(16 bytes @ 0xE0000FF0)
T2FC4 000:727.128    -- CPU_ReadMem(16 bytes @ 0xE0000FE0)
T2FC4 000:731.422   ROMTbl[0][3]: E0000000, CID: B105E00D, PID: 003BB001 ITM
T2FC4 000:731.502    -- CPU_ReadMem(16 bytes @ 0xE00FF010)
T2FC4 000:732.878    -- CPU_ReadMem(16 bytes @ 0xE0040FF0)
T2FC4 000:734.159    -- CPU_ReadMem(16 bytes @ 0xE0040FE0)
T2FC4 000:738.330   ROMTbl[0][4]: E0040000, CID: B105900D, PID: 000BB9A1 TPIU
T2FC4 000:738.396    -- CPU_ReadMem(16 bytes @ 0xE0041FF0)
T2FC4 000:739.666    -- CPU_ReadMem(16 bytes @ 0xE0041FE0)
T2FC4 000:744.274   ROMTbl[0][5]: E0041000, CID: B105900D, PID: 000BB925 ETM
T2FC4 000:745.623 - 232.326ms   returns 0x2BA01477
T2FC4 000:745.686 JLINK_GetDLLVersion()  returns 65403
T2FC4 000:745.730 JLINK_CORE_GetFound()
T2FC4 000:745.767 - 0.056ms returns 0xE0000FF
T2FC4 000:745.820 JLINK_GetDebugInfo(0x100 = JLINKARM_ROM_TABLE_ADDR_INDEX)
T2FC4 000:745.860   Value=0xE00FF000
T2FC4 000:745.914 - 0.112ms returns 0x00
T2FC4 000:748.760 JLINK_ReadMem (0xE00FF000, 0x0020 Bytes, ...)
T2FC4 000:748.847    -- CPU_ReadMem(32 bytes @ 0xE00FF000)
T2FC4 000:750.543   Data:  03 F0 F0 FF 03 20 F0 FF 03 30 F0 FF 03 10 F0 FF ...
T2FC4 000:750.620 - 1.878ms returns 0x00
T2FC4 000:750.665 JLINK_ReadMem (0xE000EFF0, 0x0010 Bytes, ...)
T2FC4 000:750.713    -- CPU_ReadMem(16 bytes @ 0xE000EFF0)
T2FC4 000:751.983   Data:  0D 00 00 00 E0 00 00 00 05 00 00 00 B1 00 00 00
T2FC4 000:752.049 - 1.403ms returns 0x00
T2FC4 000:752.095 JLINK_ReadMem (0xE000EFD0, 0x0020 Bytes, ...)
T2FC4 000:752.139    -- CPU_ReadMem(32 bytes @ 0xE000EFD0)
T2FC4 000:753.829   Data:  04 00 00 00 00 00 00 00 00 00 00 00 00 00 00 00 ...
T2FC4 000:753.895 - 1.819ms returns 0x00
T2FC4 000:753.939 JLINK_ReadMem (0xE0001FF0, 0x0010 Bytes, ...)
T2FC4 000:753.986    -- CPU_ReadMem(16 bytes @ 0xE0001FF0)
T2FC4 000:755.266   Data:  0D 00 00 00 E0 00 00 00 05 00 00 00 B1 00 00 00
T2FC4 000:755.339 - 1.419ms returns 0x00
T2FC4 000:755.383 JLINK_ReadMem (0xE0001FD0, 0x0020 Bytes, ...)
T2FC4 000:755.427    -- CPU_ReadMem(32 bytes @ 0xE0001FD0)
T2FC4 000:757.105   Data:  04 00 00 00 00 00 00 00 00 00 00 00 00 00 00 00 ...
T2FC4 000:757.171 - 1.807ms returns 0x00
T2FC4 000:757.216 JLINK_ReadMem (0xE0002FF0, 0x0010 Bytes, ...)
T2FC4 000:757.260    -- CPU_ReadMem(16 bytes @ 0xE0002FF0)
T2FC4 000:758.511   Data:  0D 00 00 00 E0 00 00 00 05 00 00 00 B1 00 00 00
T2FC4 000:758.578 - 1.386ms returns 0x00
T2FC4 000:758.640 JLINK_ReadMem (0xE0002FD0, 0x0020 Bytes, ...)
T2FC4 000:758.694    -- CPU_ReadMem(32 bytes @ 0xE0002FD0)
T2FC4 000:760.355   Data:  04 00 00 00 00 00 00 00 00 00 00 00 00 00 00 00 ...
T2FC4 000:760.421 - 1.800ms returns 0x00
T2FC4 000:760.469 JLINK_ReadMem (0xE0000FF0, 0x0010 Bytes, ...)
T2FC4 000:760.514    -- CPU_ReadMem(16 bytes @ 0xE0000FF0)
T2FC4 000:761.817   Data:  0D 00 00 00 E0 00 00 00 05 00 00 00 B1 00 00 00
T2FC4 000:761.883 - 1.432ms returns 0x00
T2FC4 000:761.927 JLINK_ReadMem (0xE0000FD0, 0x0020 Bytes, ...)
T2FC4 000:761.971    -- CPU_ReadMem(32 bytes @ 0xE0000FD0)
T2FC4 000:763.686   Data:  04 00 00 00 00 00 00 00 00 00 00 00 00 00 00 00 ...
T2FC4 000:763.753 - 1.844ms returns 0x00
T2FC4 000:763.798 JLINK_ReadMem (0xE0040FF0, 0x0010 Bytes, ...)
T2FC4 000:763.842    -- CPU_ReadMem(16 bytes @ 0xE0040FF0)
T2FC4 000:765.121   Data:  0D 00 00 00 90 00 00 00 05 00 00 00 B1 00 00 00
T2FC4 000:765.186 - 1.407ms returns 0x00
T2FC4 000:765.230 JLINK_ReadMem (0xE0040FD0, 0x0020 Bytes, ...)
T2FC4 000:765.273    -- CPU_ReadMem(32 bytes @ 0xE0040FD0)
T2FC4 000:766.946   Data:  04 00 00 00 00 00 00 00 00 00 00 00 00 00 00 00 ...
T2FC4 000:767.012 - 1.801ms returns 0x00
T2FC4 000:767.057 JLINK_ReadMem (0xE0041FF0, 0x0010 Bytes, ...)
T2FC4 000:767.101    -- CPU_ReadMem(16 bytes @ 0xE0041FF0)
T2FC4 000:768.360   Data:  0D 00 00 00 90 00 00 00 05 00 00 00 B1 00 00 00
T2FC4 000:768.437 - 1.398ms returns 0x00
T2FC4 000:768.481 JLINK_ReadMem (0xE0041FD0, 0x0020 Bytes, ...)
T2FC4 000:768.525    -- CPU_ReadMem(32 bytes @ 0xE0041FD0)
T2FC4 000:770.208   Data:  04 00 00 00 00 00 00 00 00 00 00 00 00 00 00 00 ...
T2FC4 000:770.274 - 1.813ms returns 0x00
T2FC4 000:770.320   JLINK_ReadMemU32(0xE000EF40, 0x0001 Items, ...)
T2FC4 000:770.381    -- CPU_ReadMem(4 bytes @ 0xE000EF40)
T2FC4 000:771.377   Data:  21 00 11 10
T2FC4 000:771.444 - 1.143ms returns 1
T2FC4 000:771.494   JLINK_ReadMemU32(0xE000EF44, 0x0001 Items, ...)
T2FC4 000:771.554    -- CPU_ReadMem(4 bytes @ 0xE000EF44)
T2FC4 000:772.556   Data:  11 00 00 11
T2FC4 000:772.634 - 1.168ms returns 1
T2FC4 000:772.695   JLINK_ReadMemU32(0xE000ED00, 0x0001 Items, ...)
T2FC4 000:772.766    -- CPU_ReadMem(4 bytes @ 0xE000ED00)
T2FC4 000:773.705   Data:  41 C2 0F 41
T2FC4 000:773.782    - CPUID
T2FC4 000:773.837 - 1.162ms returns 1
T2FC4 000:773.889 JLINK_SetResetType(JLINKARM_CM3_RESET_TYPE_NORMAL)
T2FC4 000:773.927 - 0.056ms returns JLINKARM_CM3_RESET_TYPE_NORMAL
T2FC4 000:773.973 JLINK_Reset()
T2FC4 000:774.030   CPU is running
T2FC4 000:774.088    -- CPU_WriteMem(4 bytes @ 0xE000EDF0)
T2FC4 000:775.087   CPU is running
T2FC4 000:775.156    -- CPU_WriteMem(4 bytes @ 0xE000EDFC)
T2FC4 000:779.086   Reset: Halt core after reset via DEMCR.VC_CORERESET.
T2FC4 000:782.807   Reset: Reset device via AIRCR.SYSRESETREQ.
T2FC4 000:782.916   CPU is running
T2FC4 000:783.015    -- CPU_WriteMem(4 bytes @ 0xE000ED0C)
T2FC4 000:837.657    -- CPU_ReadMem(4 bytes @ 0xE000EDF0)
T2FC4 000:838.856    -- CPU_ReadMem(4 bytes @ 0xE000EDF0)
T2FC4 000:839.922   CPU is running
T2FC4 000:840.030    -- CPU_WriteMem(4 bytes @ 0xE000EDF0)
T2FC4 000:841.134   CPU is running
T2FC4 000:841.247    -- CPU_WriteMem(4 bytes @ 0xE000EDFC)
T2FC4 000:847.669    -- CPU_ReadMem(4 bytes @ 0xE000EDF0)
T2FC4 000:861.072    -- CPU_WriteMem(4 bytes @ 0xE0002000)
T2FC4 000:862.227    -- CPU_ReadMem(4 bytes @ 0xE000EDFC)
T2FC4 000:863.349    -- CPU_ReadMem(4 bytes @ 0xE0001000)
T2FC4 000:864.504 - 90.569ms
T2FC4 000:864.613 JLINK_Halt()
T2FC4 000:864.688 - 0.112ms returns 0x00
T2FC4 000:864.768 JLINK_IsHalted()
T2FC4 000:864.829 - 0.089ms returns TRUE
T2FC4 000:864.900   JLINK_ReadMemU32(0xE000EDF0, 0x0001 Items, ...)
T2FC4 000:865.003    -- CPU_ReadMem(4 bytes @ 0xE000EDF0)
T2FC4 000:866.090   Data:  03 00 03 00
T2FC4 000:866.192    - DHCSR
T2FC4 000:866.287 - 1.417ms returns 1
T2FC4 000:866.389   JLINK_WriteU32(0xE000EDF0, 0xA05F0003)
T2FC4 000:866.476    - DHCSR
T2FC4 000:866.593    -- CPU_WriteMem(4 bytes @ 0xE000EDF0)
T2FC4 000:867.632 - 1.298ms returns 0
T2FC4 000:867.733   JLINK_WriteU32(0xE000EDFC, 0x01000000)
T2FC4 000:867.836    - DEMCR
T2FC4 000:867.936    -- CPU_WriteMem(4 bytes @ 0xE000EDFC)
T2FC4 000:869.041 - 1.352ms returns 0
T2FC4 000:888.289 JLINK_GetHWStatus(...)
T2FC4 000:888.826 - 0.588ms returns 0x00
T2FC4 000:902.663 JLINK_GetNumBPUnits(Type = 0xFFFFFF00)
T2FC4 000:902.737 - 0.093ms returns 0x06
T2FC4 000:902.778 JLINK_GetNumBPUnits(Type = 0xF0)
T2FC4 000:902.814 - 0.061ms returns 0x2000
T2FC4 000:902.861 JLINK_GetNumWPUnits()
T2FC4 000:902.897 - 0.052ms returns 0x04
T2FC4 000:929.808 JLINK_GetSpeed()
T2FC4 000:929.874 - 0.083ms returns 0x1F4
T2FC4 000:956.262   JLINK_ReadMemU32(0xE000E004, 0x0001 Items, ...)
T2FC4 000:956.345    -- CPU_ReadMem(4 bytes @ 0xE000E004)
T2FC4 000:957.351   Data:  02 00 00 00
T2FC4 000:957.404 - 1.157ms returns 1
T2FC4 000:957.434   JLINK_ReadMemU32(0xE000E004, 0x0001 Items, ...)
T2FC4 000:957.473    -- CPU_ReadMem(4 bytes @ 0xE000E004)
T2FC4 000:958.392   Data:  02 00 00 00
T2FC4 000:958.434 - 1.014ms returns 1
T2FC4 000:958.466 JLINK_WriteMem(0xE0001000, 0x001C Bytes, ...)
T2FC4 000:958.491   Data:  01 00 00 00 00 00 00 00 00 00 00 00 00 00 00 00 ...
T2FC4 000:959.653    -- CPU_WriteMem(28 bytes @ 0xE0001000)
T2FC4 000:961.193 - 2.742ms returns 0x1C
T2FC4 000:961.227 JLINK_ReadMem (0xE0001000, 0x001C Bytes, ...)
T2FC4 000:961.265    -- CPU_ReadMem(28 bytes @ 0xE0001000)
T2FC4 000:962.763   Data:  01 00 00 40 00 00 00 00 00 00 00 00 00 00 00 00 ...
T2FC4 000:962.804 - 1.593ms returns 0x00
T2FC4 000:962.842 JLINK_Halt()
T2FC4 000:962.866 - 0.034ms returns 0x00
T2FC4 000:962.890 JLINK_IsHalted()
T2FC4 000:962.914 - 0.034ms returns TRUE
T2FC4 000:969.461 JLINK_WriteMem(0x20000000, 0x0180 Bytes, ...)
T2FC4 000:969.499   Data:  00 BE 0A E0 0D 78 2D 06 68 40 08 24 40 00 00 D3 ...
T2FC4 000:970.548    -- CPU_WriteMem(384 bytes @ 0x20000000)
T2FC4 000:981.049 - 11.608ms returns 0x180
T2FC4 000:981.135 JLINK_WriteReg(R0, 0x08000000)
T2FC4 000:981.174 - 0.050ms returns 0x00
T2FC4 000:981.199 JLINK_WriteReg(R1, 0x0A037A00)
T2FC4 000:981.223 - 0.035ms returns 0x00
T2FC4 000:981.248 JLINK_WriteReg(R2, 0x00000001)
T2FC4 000:981.271 - 0.035ms returns 0x00
T2FC4 000:981.296 JLINK_WriteReg(R3, 0x00000000)
T2FC4 000:981.320 - 0.034ms returns 0x00
T2FC4 000:981.345 JLINK_WriteReg(R4, 0x00000000)
T2FC4 000:981.368 - 0.034ms returns 0x00
T2FC4 000:981.393 JLINK_WriteReg(R5, 0x00000000)
T2FC4 000:981.416 - 0.034ms returns 0x00
T2FC4 000:981.441 JLINK_WriteReg(R6, 0x00000000)
T2FC4 000:981.464 - 0.035ms returns 0x00
T2FC4 000:981.489 JLINK_WriteReg(R7, 0x00000000)
T2FC4 000:981.512 - 0.034ms returns 0x00
T2FC4 000:981.537 JLINK_WriteReg(R8, 0x00000000)
T2FC4 000:981.573 - 0.047ms returns 0x00
T2FC4 000:981.598 JLINK_WriteReg(R9, 0x2000017C)
T2FC4 000:981.622 - 0.034ms returns 0x00
T2FC4 000:981.646 JLINK_WriteReg(R10, 0x00000000)
T2FC4 000:981.669 - 0.034ms returns 0x00
T2FC4 000:981.694 JLINK_WriteReg(R11, 0x00000000)
T2FC4 000:981.717 - 0.035ms returns 0x00
T2FC4 000:981.744 JLINK_WriteReg(R12, 0x00000000)
T2FC4 000:981.766 - 0.034ms returns 0x00
T2FC4 000:981.791 JLINK_WriteReg(R13 (SP), 0x20001000)
T2FC4 000:981.815 - 0.035ms returns 0x00
T2FC4 000:981.840 JLINK_WriteReg(R14, 0x20000001)
T2FC4 000:981.863 - 0.034ms returns 0x00
T2FC4 000:981.888 JLINK_WriteReg(R15 (PC), 0x20000054)
T2FC4 000:981.911 - 0.034ms returns 0x00
T2FC4 000:981.936 JLINK_WriteReg(XPSR, 0x01000000)
T2FC4 000:981.961 - 0.036ms returns 0x00
T2FC4 000:981.986 JLINK_WriteReg(MSP, 0x20001000)
T2FC4 000:982.009 - 0.034ms returns 0x00
T2FC4 000:982.033 JLINK_WriteReg(PSP, 0x20001000)
T2FC4 000:982.057 - 0.034ms returns 0x00
T2FC4 000:982.081 JLINK_WriteReg(CFBP, 0x00000000)
T2FC4 000:982.104 - 0.034ms returns 0x00
T2FC4 000:982.130   JLINK_SetBPEx(Addr = 0x20000000, Type = 0xFFFFFFF2)
T2FC4 000:982.169    -- CPU_ReadMem(2 bytes @ 0x20000000)
T2FC4 000:983.107 - 0.992ms returns 0x00000001
T2FC4 000:983.141 JLINK_Go()
T2FC4 000:983.171    -- CPU_WriteMem(2 bytes @ 0x20000000)
T2FC4 000:984.045    -- CPU_ReadMem(4 bytes @ 0xE0001000)
T2FC4 000:985.076    -- CPU_WriteMem(4 bytes @ 0xE0002008)
T2FC4 000:985.141    -- CPU_WriteMem(4 bytes @ 0xE000200C)
T2FC4 000:985.181    -- CPU_WriteMem(4 bytes @ 0xE0002010)
T2FC4 000:985.229    -- CPU_WriteMem(4 bytes @ 0xE0002014)
T2FC4 000:985.263    -- CPU_WriteMem(4 bytes @ 0xE0002018)
T2FC4 000:985.300    -- CPU_WriteMem(4 bytes @ 0xE000201C)
T2FC4 000:989.587    -- CPU_WriteMem(4 bytes @ 0xE0001004)
T2FC4 001:000.863 - 17.739ms
T2FC4 001:000.904 JLINK_IsHalted()
T2FC4 001:012.375    -- CPU_ReadMem(2 bytes @ 0x20000000)
T2FC4 001:013.348 - 12.459ms returns TRUE
T2FC4 001:013.386 JLINK_ReadReg(R15 (PC))
T2FC4 001:013.417 - 0.042ms returns 0x20000000
T2FC4 001:013.449 JLINK_ClrBPEx(BPHandle = 0x00000001)
T2FC4 001:013.473 - 0.035ms returns 0x00
T2FC4 001:013.500 JLINK_ReadReg(R0)
T2FC4 001:013.523 - 0.035ms returns 0x00000000
T2FC4 001:014.266 JLINK_WriteReg(R0, 0x08000000)
T2FC4 001:014.300 - 0.046ms returns 0x00
T2FC4 001:014.325 JLINK_WriteReg(R1, 0x00004000)
T2FC4 001:014.349 - 0.035ms returns 0x00
T2FC4 001:014.375 JLINK_WriteReg(R2, 0x000000FF)
T2FC4 001:014.399 - 0.035ms returns 0x00
T2FC4 001:014.424 JLINK_WriteReg(R3, 0x00000000)
T2FC4 001:014.447 - 0.035ms returns 0x00
T2FC4 001:014.473 JLINK_WriteReg(R4, 0x00000000)
T2FC4 001:014.496 - 0.035ms returns 0x00
T2FC4 001:014.599 JLINK_WriteReg(R5, 0x00000000)
T2FC4 001:014.629 - 0.040ms returns 0x00
T2FC4 001:014.654 JLINK_WriteReg(R6, 0x00000000)
T2FC4 001:014.677 - 0.034ms returns 0x00
T2FC4 001:014.702 JLINK_WriteReg(R7, 0x00000000)
T2FC4 001:014.725 - 0.034ms returns 0x00
T2FC4 001:014.756 JLINK_WriteReg(R8, 0x00000000)
T2FC4 001:014.785 - 0.040ms returns 0x00
T2FC4 001:014.811 JLINK_WriteReg(R9, 0x2000017C)
T2FC4 001:014.833 - 0.034ms returns 0x00
T2FC4 001:014.858 JLINK_WriteReg(R10, 0x00000000)
T2FC4 001:014.881 - 0.034ms returns 0x00
T2FC4 001:014.906 JLINK_WriteReg(R11, 0x00000000)
T2FC4 001:014.929 - 0.034ms returns 0x00
T2FC4 001:014.953 JLINK_WriteReg(R12, 0x00000000)
T2FC4 001:014.977 - 0.034ms returns 0x00
T2FC4 001:015.005 JLINK_WriteReg(R13 (SP), 0x20001000)
T2FC4 001:015.028 - 0.035ms returns 0x00
T2FC4 001:015.053 JLINK_WriteReg(R14, 0x20000001)
T2FC4 001:015.076 - 0.034ms returns 0x00
T2FC4 001:015.101 JLINK_WriteReg(R15 (PC), 0x20000020)
T2FC4 001:015.124 - 0.034ms returns 0x00
T2FC4 001:015.148 JLINK_WriteReg(XPSR, 0x01000000)
T2FC4 001:015.171 - 0.034ms returns 0x00
T2FC4 001:015.196 JLINK_WriteReg(MSP, 0x20001000)
T2FC4 001:015.219 - 0.034ms returns 0x00
T2FC4 001:015.244 JLINK_WriteReg(PSP, 0x20001000)
T2FC4 001:015.267 - 0.034ms returns 0x00
T2FC4 001:015.291 JLINK_WriteReg(CFBP, 0x00000000)
T2FC4 001:015.315 - 0.034ms returns 0x00
T2FC4 001:015.340   JLINK_SetBPEx(Addr = 0x20000000, Type = 0xFFFFFFF2)
T2FC4 001:015.375 - 0.049ms returns 0x00000002
T2FC4 001:015.403 JLINK_Go()
T2FC4 001:015.435    -- CPU_ReadMem(4 bytes @ 0xE0001000)
T2FC4 001:026.798 - 11.445ms
T2FC4 001:026.894 JLINK_IsHalted()
T2FC4 001:038.640    -- CPU_ReadMem(2 bytes @ 0x20000000)
T2FC4 001:039.834 - 12.980ms returns TRUE
T2FC4 001:039.929 JLINK_ReadReg(R15 (PC))
T2FC4 001:040.013 - 0.115ms returns 0x20000000
T2FC4 001:040.086 JLINK_ClrBPEx(BPHandle = 0x00000002)
T2FC4 001:040.148 - 0.091ms returns 0x00
T2FC4 001:040.218 JLINK_ReadReg(R0)
T2FC4 001:040.279 - 0.091ms returns 0x00000001
T2FC4 001:040.356 JLINK_WriteReg(R0, 0x08000000)
T2FC4 001:040.419 - 0.101ms returns 0x00
T2FC4 001:040.496 JLINK_WriteReg(R1, 0x00004000)
T2FC4 001:040.557 - 0.090ms returns 0x00
T2FC4 001:040.625 JLINK_WriteReg(R2, 0x000000FF)
T2FC4 001:040.685 - 0.090ms returns 0x00
T2FC4 001:040.752 JLINK_WriteReg(R3, 0x00000000)
T2FC4 001:040.844 - 0.121ms returns 0x00
T2FC4 001:040.915 JLINK_WriteReg(R4, 0x00000000)
T2FC4 001:040.975 - 0.090ms returns 0x00
T2FC4 001:041.043 JLINK_WriteReg(R5, 0x00000000)
T2FC4 001:041.103 - 0.089ms returns 0x00
T2FC4 001:041.171 JLINK_WriteReg(R6, 0x00000000)
T2FC4 001:041.231 - 0.089ms returns 0x00
T2FC4 001:041.300 JLINK_WriteReg(R7, 0x00000000)
T2FC4 001:041.361 - 0.090ms returns 0x00
T2FC4 001:041.429 JLINK_WriteReg(R8, 0x00000000)
T2FC4 001:041.489 - 0.097ms returns 0x00
T2FC4 001:041.566 JLINK_WriteReg(R9, 0x2000017C)
T2FC4 001:041.626 - 0.089ms returns 0x00
T2FC4 001:041.694 JLINK_WriteReg(R10, 0x00000000)
T2FC4 001:041.754 - 0.097ms returns 0x00
T2FC4 001:041.847 JLINK_WriteReg(R11, 0x00000000)
T2FC4 001:041.924 - 0.106ms returns 0x00
T2FC4 001:041.996 JLINK_WriteReg(R12, 0x00000000)
T2FC4 001:042.072 - 0.106ms returns 0x00
T2FC4 001:042.141 JLINK_WriteReg(R13 (SP), 0x20001000)
T2FC4 001:042.203 - 0.090ms returns 0x00
T2FC4 001:042.272 JLINK_WriteReg(R14, 0x20000001)
T2FC4 001:042.333 - 0.089ms returns 0x00
T2FC4 001:042.400 JLINK_WriteReg(R15 (PC), 0x200000BC)
T2FC4 001:042.461 - 0.089ms returns 0x00
T2FC4 001:042.529 JLINK_WriteReg(XPSR, 0x01000000)
T2FC4 001:042.589 - 0.095ms returns 0x00
T2FC4 001:042.663 JLINK_WriteReg(MSP, 0x20001000)
T2FC4 001:042.723 - 0.088ms returns 0x00
T2FC4 001:042.812 JLINK_WriteReg(PSP, 0x20001000)
T2FC4 001:042.878 - 0.096ms returns 0x00
T2FC4 001:042.947 JLINK_WriteReg(CFBP, 0x00000000)
T2FC4 001:043.007 - 0.089ms returns 0x00
T2FC4 001:043.077   JLINK_SetBPEx(Addr = 0x20000000, Type = 0xFFFFFFF2)
T2FC4 001:043.167 - 0.121ms returns 0x00000003
T2FC4 001:043.237 JLINK_Go()
T2FC4 001:043.314    -- CPU_ReadMem(4 bytes @ 0xE0001000)
T2FC4 001:054.896 - 11.707ms
T2FC4 001:054.995 JLINK_IsHalted()
T2FC4 001:056.140 - 1.183ms returns FALSE
T2FC4 001:132.859 JLINK_IsHalted()
T2FC4 001:133.921 - 1.103ms returns FALSE
T2FC4 001:135.861 JLINK_IsHalted()
T2FC4 001:136.920 - 1.078ms returns FALSE
T2FC4 001:139.866 JLINK_IsHalted()
T2FC4 001:140.922 - 1.074ms returns FALSE
T2FC4 001:142.864 JLINK_IsHalted()
T2FC4 001:143.866 - 1.041ms returns FALSE
T2FC4 001:145.854 JLINK_IsHalted()
T2FC4 001:146.918 - 1.079ms returns FALSE
T2FC4 001:155.877 JLINK_IsHalted()
T2FC4 001:156.963 - 1.111ms returns FALSE
T2FC4 001:159.866 JLINK_IsHalted()
T2FC4 001:160.934 - 1.087ms returns FALSE
T2FC4 001:163.877 JLINK_IsHalted()
T2FC4 001:164.929 - 1.070ms returns FALSE
T2FC4 001:168.881 JLINK_IsHalted()
T2FC4 001:169.931 - 1.067ms returns FALSE
T2FC4 001:171.876 JLINK_IsHalted()
T2FC4 001:172.882 - 1.045ms returns FALSE
T2FC4 001:174.870 JLINK_IsHalted()
T2FC4 001:175.908 - 1.051ms returns FALSE
T2FC4 001:179.909 JLINK_IsHalted()
T2FC4 001:180.973 - 1.091ms returns FALSE
T2FC4 001:183.911 JLINK_IsHalted()
T2FC4 001:184.941 - 1.082ms returns FALSE
T2FC4 001:186.888 JLINK_IsHalted()
T2FC4 001:187.963 - 1.100ms returns FALSE
T2FC4 001:189.905 JLINK_IsHalted()
T2FC4 001:190.965 - 1.083ms returns FALSE
T2FC4 001:193.928 JLINK_IsHalted()
T2FC4 001:194.987 - 1.085ms returns FALSE
T2FC4 001:196.894 JLINK_IsHalted()
T2FC4 001:197.969 - 1.098ms returns FALSE
T2FC4 001:200.919 JLINK_IsHalted()
T2FC4 001:201.983 - 1.120ms returns FALSE
T2FC4 001:205.911 JLINK_IsHalted()
T2FC4 001:207.071 - 1.211ms returns FALSE
T2FC4 001:234.996 JLINK_IsHalted()
T2FC4 001:236.126 - 1.157ms returns FALSE
T2FC4 001:237.992 JLINK_IsHalted()
T2FC4 001:238.971 - 1.024ms returns FALSE
T2FC4 001:240.996 JLINK_IsHalted()
T2FC4 001:242.035 - 1.072ms returns FALSE
T2FC4 001:243.946 JLINK_IsHalted()
T2FC4 001:244.964 - 1.056ms returns FALSE
T2FC4 001:246.933 JLINK_IsHalted()
T2FC4 001:248.015 - 1.108ms returns FALSE
T2FC4 001:249.953 JLINK_IsHalted()
T2FC4 001:251.009 - 1.074ms returns FALSE
T2FC4 001:253.947 JLINK_IsHalted()
T2FC4 001:255.005 - 1.077ms returns FALSE
T2FC4 001:256.940 JLINK_IsHalted()
T2FC4 001:258.013 - 1.099ms returns FALSE
T2FC4 001:262.965 JLINK_IsHalted()
T2FC4 001:264.166 - 1.256ms returns FALSE
T2FC4 001:265.964 JLINK_IsHalted()
T2FC4 001:267.157 - 1.245ms returns FALSE
T2FC4 001:296.960 JLINK_IsHalted()
T2FC4 001:298.079 - 1.165ms returns FALSE
T2FC4 001:299.967 JLINK_IsHalted()
T2FC4 001:301.128 - 1.193ms returns FALSE
T2FC4 001:307.963 JLINK_IsHalted()
T2FC4 001:309.027 - 1.097ms returns FALSE
T2FC4 001:312.970 JLINK_IsHalted()
T2FC4 001:314.082 - 1.153ms returns FALSE
T2FC4 001:315.982 JLINK_IsHalted()
T2FC4 001:317.112 - 1.166ms returns FALSE
T2FC4 001:331.002 JLINK_IsHalted()
T2FC4 001:332.053 - 1.079ms returns FALSE
T2FC4 001:343.982 JLINK_IsHalted()
T2FC4 001:345.016 - 1.065ms returns FALSE
T2FC4 001:350.042 JLINK_IsHalted()
T2FC4 001:351.170 - 1.154ms returns FALSE
T2FC4 001:354.027 JLINK_IsHalted()
T2FC4 001:355.170 - 1.168ms returns FALSE
T2FC4 001:357.065 JLINK_IsHalted()
T2FC4 001:358.111 - 1.074ms returns FALSE
T2FC4 001:360.014 JLINK_IsHalted()
T2FC4 001:361.025 - 1.055ms returns FALSE
T2FC4 001:364.025 JLINK_IsHalted()
T2FC4 001:365.082 - 1.073ms returns FALSE
T2FC4 001:368.013 JLINK_IsHalted()
T2FC4 001:369.045 - 1.079ms returns FALSE
T2FC4 001:376.031 JLINK_IsHalted()
T2FC4 001:377.103 - 1.089ms returns FALSE
T2FC4 001:380.030 JLINK_IsHalted()
T2FC4 001:381.086 - 1.075ms returns FALSE
T2FC4 001:386.090 JLINK_IsHalted()
T2FC4 001:387.118 - 1.048ms returns FALSE
T2FC4 001:390.233 JLINK_IsHalted()
T2FC4 001:391.184 - 0.969ms returns FALSE
T2FC4 001:394.033 JLINK_IsHalted()
T2FC4 001:395.091 - 1.077ms returns FALSE
T2FC4 001:398.045 JLINK_IsHalted()
T2FC4 001:399.083 - 1.058ms returns FALSE
T2FC4 001:403.088 JLINK_IsHalted()
T2FC4 001:404.094 - 1.027ms returns FALSE
T2FC4 001:407.037 JLINK_IsHalted()
T2FC4 001:408.101 - 1.081ms returns FALSE
T2FC4 001:411.042 JLINK_IsHalted()
T2FC4 001:412.104 - 1.086ms returns FALSE
T2FC4 001:415.042 JLINK_IsHalted()
T2FC4 001:416.113 - 1.089ms returns FALSE
T2FC4 001:420.045 JLINK_IsHalted()
T2FC4 001:421.076 - 1.065ms returns FALSE
T2FC4 001:424.047 JLINK_IsHalted()
T2FC4 001:425.120 - 1.093ms returns FALSE
T2FC4 001:428.075 JLINK_IsHalted()
T2FC4 001:429.122 - 1.080ms returns FALSE
T2FC4 001:440.081 JLINK_IsHalted()
T2FC4 001:441.181 - 1.123ms returns FALSE
T2FC4 001:447.084 JLINK_IsHalted()
T2FC4 001:448.118 - 1.087ms returns FALSE
T2FC4 001:451.138 JLINK_IsHalted()
T2FC4 001:452.136 - 1.017ms returns FALSE
T2FC4 001:455.068 JLINK_IsHalted()
T2FC4 001:456.140 - 1.091ms returns FALSE
T2FC4 001:459.081 JLINK_IsHalted()
T2FC4 001:470.596    -- CPU_ReadMem(2 bytes @ 0x20000000)
T2FC4 001:471.610 - 12.546ms returns TRUE
T2FC4 001:471.651 JLINK_ReadReg(R15 (PC))
T2FC4 001:471.692 - 0.061ms returns 0x20000000
T2FC4 001:471.730 JLINK_ClrBPEx(BPHandle = 0x00000003)
T2FC4 001:471.764 - 0.045ms returns 0x00
T2FC4 001:471.800 JLINK_ReadReg(R0)
T2FC4 001:471.834 - 0.046ms returns 0x00000000
T2FC4 001:472.722 JLINK_WriteReg(R0, 0x08004000)
T2FC4 001:472.757 - 0.047ms returns 0x00
T2FC4 001:472.782 JLINK_WriteReg(R1, 0x00004000)
T2FC4 001:472.807 - 0.036ms returns 0x00
T2FC4 001:472.833 JLINK_WriteReg(R2, 0x000000FF)
T2FC4 001:472.858 - 0.036ms returns 0x00
T2FC4 001:472.884 JLINK_WriteReg(R3, 0x00000000)
T2FC4 001:472.914 - 0.041ms returns 0x00
T2FC4 001:472.939 JLINK_WriteReg(R4, 0x00000000)
T2FC4 001:472.962 - 0.034ms returns 0x00
T2FC4 001:472.987 JLINK_WriteReg(R5, 0x00000000)
T2FC4 001:473.010 - 0.034ms returns 0x00
T2FC4 001:473.035 JLINK_WriteReg(R6, 0x00000000)
T2FC4 001:473.061 - 0.036ms returns 0x00
T2FC4 001:473.086 JLINK_WriteReg(R7, 0x00000000)
T2FC4 001:473.110 - 0.035ms returns 0x00
T2FC4 001:473.134 JLINK_WriteReg(R8, 0x00000000)
T2FC4 001:473.158 - 0.034ms returns 0x00
T2FC4 001:473.183 JLINK_WriteReg(R9, 0x2000017C)
T2FC4 001:473.206 - 0.034ms returns 0x00
T2FC4 001:473.231 JLINK_WriteReg(R10, 0x00000000)
T2FC4 001:473.255 - 0.035ms returns 0x00
T2FC4 001:473.279 JLINK_WriteReg(R11, 0x00000000)
T2FC4 001:473.306 - 0.037ms returns 0x00
T2FC4 001:473.331 JLINK_WriteReg(R12, 0x00000000)
T2FC4 001:473.354 - 0.034ms returns 0x00
T2FC4 001:473.379 JLINK_WriteReg(R13 (SP), 0x20001000)
T2FC4 001:473.403 - 0.035ms returns 0x00
T2FC4 001:473.428 JLINK_WriteReg(R14, 0x20000001)
T2FC4 001:473.451 - 0.035ms returns 0x00
T2FC4 001:473.476 JLINK_WriteReg(R15 (PC), 0x20000020)
T2FC4 001:473.500 - 0.034ms returns 0x00
T2FC4 001:473.524 JLINK_WriteReg(XPSR, 0x01000000)
T2FC4 001:473.548 - 0.035ms returns 0x00
T2FC4 001:473.573 JLINK_WriteReg(MSP, 0x20001000)
T2FC4 001:473.596 - 0.035ms returns 0x00
T2FC4 001:473.621 JLINK_WriteReg(PSP, 0x20001000)
T2FC4 001:473.645 - 0.034ms returns 0x00
T2FC4 001:473.669 JLINK_WriteReg(CFBP, 0x00000000)
T2FC4 001:473.696 - 0.037ms returns 0x00
T2FC4 001:473.722   JLINK_SetBPEx(Addr = 0x20000000, Type = 0xFFFFFFF2)
T2FC4 001:473.757 - 0.047ms returns 0x00000004
T2FC4 001:473.782 JLINK_Go()
T2FC4 001:473.815    -- CPU_ReadMem(4 bytes @ 0xE0001000)
T2FC4 001:485.000 - 11.247ms
T2FC4 001:485.053 JLINK_IsHalted()
T2FC4 001:496.615    -- CPU_ReadMem(2 bytes @ 0x20000000)
T2FC4 001:497.600 - 12.561ms returns TRUE
T2FC4 001:497.637 JLINK_ReadReg(R15 (PC))
T2FC4 001:497.678 - 0.062ms returns 0x20000000
T2FC4 001:497.714 JLINK_ClrBPEx(BPHandle = 0x00000004)
T2FC4 001:497.748 - 0.045ms returns 0x00
T2FC4 001:497.788 JLINK_ReadReg(R0)
T2FC4 001:497.820 - 0.044ms returns 0x00000001
T2FC4 001:497.859 JLINK_WriteReg(R0, 0x08004000)
T2FC4 001:497.892 - 0.044ms returns 0x00
T2FC4 001:497.927 JLINK_WriteReg(R1, 0x00004000)
T2FC4 001:497.959 - 0.044ms returns 0x00
T2FC4 001:497.994 JLINK_WriteReg(R2, 0x000000FF)
T2FC4 001:498.026 - 0.044ms returns 0x00
T2FC4 001:498.053 JLINK_WriteReg(R3, 0x00000000)
T2FC4 001:498.079 - 0.037ms returns 0x00
T2FC4 001:498.123 JLINK_WriteReg(R4, 0x00000000)
T2FC4 001:498.146 - 0.035ms returns 0x00
T2FC4 001:498.178 JLINK_WriteReg(R5, 0x00000000)
T2FC4 001:498.206 - 0.039ms returns 0x00
T2FC4 001:498.233 JLINK_WriteReg(R6, 0x00000000)
T2FC4 001:498.257 - 0.035ms returns 0x00
T2FC4 001:498.287 JLINK_WriteReg(R7, 0x00000000)
T2FC4 001:498.310 - 0.034ms returns 0x00
T2FC4 001:498.336 JLINK_WriteReg(R8, 0x00000000)
T2FC4 001:498.360 - 0.034ms returns 0x00
T2FC4 001:498.386 JLINK_WriteReg(R9, 0x2000017C)
T2FC4 001:498.409 - 0.034ms returns 0x00
T2FC4 001:498.436 JLINK_WriteReg(R10, 0x00000000)
T2FC4 001:498.459 - 0.034ms returns 0x00
T2FC4 001:498.485 JLINK_WriteReg(R11, 0x00000000)
T2FC4 001:498.508 - 0.034ms returns 0x00
T2FC4 001:498.535 JLINK_WriteReg(R12, 0x00000000)
T2FC4 001:498.558 - 0.034ms returns 0x00
T2FC4 001:498.585 JLINK_WriteReg(R13 (SP), 0x20001000)
T2FC4 001:498.608 - 0.035ms returns 0x00
T2FC4 001:498.635 JLINK_WriteReg(R14, 0x20000001)
T2FC4 001:498.658 - 0.034ms returns 0x00
T2FC4 001:498.686 JLINK_WriteReg(R15 (PC), 0x200000BC)
T2FC4 001:498.710 - 0.034ms returns 0x00
T2FC4 001:498.737 JLINK_WriteReg(XPSR, 0x01000000)
T2FC4 001:498.760 - 0.034ms returns 0x00
T2FC4 001:498.786 JLINK_WriteReg(MSP, 0x20001000)
T2FC4 001:498.810 - 0.034ms returns 0x00
T2FC4 001:498.836 JLINK_WriteReg(PSP, 0x20001000)
T2FC4 001:498.859 - 0.034ms returns 0x00
T2FC4 001:498.885 JLINK_WriteReg(CFBP, 0x00000000)
T2FC4 001:498.908 - 0.034ms returns 0x00
T2FC4 001:498.936   JLINK_SetBPEx(Addr = 0x20000000, Type = 0xFFFFFFF2)
T2FC4 001:498.971 - 0.046ms returns 0x00000005
T2FC4 001:498.997 JLINK_Go()
T2FC4 001:499.027    -- CPU_ReadMem(4 bytes @ 0xE0001000)
T2FC4 001:510.338 - 11.387ms
T2FC4 001:510.435 JLINK_IsHalted()
T2FC4 001:511.595 - 1.198ms returns FALSE
T2FC4 001:571.172 JLINK_IsHalted()
T2FC4 001:572.273 - 1.139ms returns FALSE
T2FC4 001:574.171 JLINK_IsHalted()
T2FC4 001:575.216 - 1.074ms returns FALSE
T2FC4 001:580.183 JLINK_IsHalted()
T2FC4 001:581.209 - 1.062ms returns FALSE
T2FC4 001:593.171 JLINK_IsHalted()
T2FC4 001:594.213 - 1.065ms returns FALSE
T2FC4 001:597.166 JLINK_IsHalted()
T2FC4 001:598.171 - 1.049ms returns FALSE
T2FC4 001:602.165 JLINK_IsHalted()
T2FC4 001:603.172 - 1.046ms returns FALSE
T2FC4 001:606.179 JLINK_IsHalted()
T2FC4 001:607.222 - 1.060ms returns FALSE
T2FC4 001:610.194 JLINK_IsHalted()
T2FC4 001:611.185 - 1.034ms returns FALSE
T2FC4 001:614.172 JLINK_IsHalted()
T2FC4 001:615.204 - 1.070ms returns FALSE
T2FC4 001:618.177 JLINK_IsHalted()
T2FC4 001:619.176 - 1.042ms returns FALSE
T2FC4 001:622.197 JLINK_IsHalted()
T2FC4 001:623.182 - 1.006ms returns FALSE
T2FC4 001:627.184 JLINK_IsHalted()
T2FC4 001:628.181 - 1.041ms returns FALSE
T2FC4 001:630.184 JLINK_IsHalted()
T2FC4 001:631.173 - 1.048ms returns FALSE
T2FC4 001:634.191 JLINK_IsHalted()
T2FC4 001:635.174 - 1.021ms returns FALSE
T2FC4 001:638.204 JLINK_IsHalted()
T2FC4 001:639.249 - 1.061ms returns FALSE
T2FC4 001:642.226 JLINK_IsHalted()
T2FC4 001:643.319 - 1.115ms returns FALSE
T2FC4 001:646.224 JLINK_IsHalted()
T2FC4 001:647.231 - 1.052ms returns FALSE
T2FC4 001:657.219 JLINK_IsHalted()
T2FC4 001:658.274 - 1.098ms returns FALSE
T2FC4 001:662.278 JLINK_IsHalted()
T2FC4 001:663.271 - 1.021ms returns FALSE
T2FC4 001:668.273 JLINK_IsHalted()
T2FC4 001:669.260 - 1.034ms returns FALSE
T2FC4 001:673.203 JLINK_IsHalted()
T2FC4 001:674.284 - 1.098ms returns FALSE
T2FC4 001:676.231 JLINK_IsHalted()
T2FC4 001:677.280 - 1.066ms returns FALSE
T2FC4 001:680.230 JLINK_IsHalted()
T2FC4 001:681.280 - 1.070ms returns FALSE
T2FC4 001:684.276 JLINK_IsHalted()
T2FC4 001:685.263 - 1.027ms returns FALSE
T2FC4 001:688.304 JLINK_IsHalted()
T2FC4 001:689.249 - 0.991ms returns FALSE
T2FC4 001:696.243 JLINK_IsHalted()
T2FC4 001:697.280 - 1.055ms returns FALSE
T2FC4 001:700.294 JLINK_IsHalted()
T2FC4 001:701.276 - 1.016ms returns FALSE
T2FC4 001:704.248 JLINK_IsHalted()
T2FC4 001:705.262 - 1.050ms returns FALSE
T2FC4 001:708.222 JLINK_IsHalted()
T2FC4 001:709.292 - 1.087ms returns FALSE
T2FC4 001:720.266 JLINK_IsHalted()
T2FC4 001:721.432 - 1.207ms returns FALSE
T2FC4 001:731.260 JLINK_IsHalted()
T2FC4 001:732.851 - 1.632ms returns FALSE
T2FC4 001:743.283 JLINK_IsHalted()
T2FC4 001:744.342 - 1.085ms returns FALSE
T2FC4 001:747.274 JLINK_IsHalted()
T2FC4 001:748.312 - 1.062ms returns FALSE
T2FC4 001:751.285 JLINK_IsHalted()
T2FC4 001:752.336 - 1.077ms returns FALSE
T2FC4 001:755.279 JLINK_IsHalted()
T2FC4 001:756.311 - 1.056ms returns FALSE
T2FC4 001:759.275 JLINK_IsHalted()
T2FC4 001:760.313 - 1.063ms returns FALSE
T2FC4 001:778.301 JLINK_IsHalted()
T2FC4 001:779.385 - 1.110ms returns FALSE
T2FC4 001:782.296 JLINK_IsHalted()
T2FC4 001:783.351 - 1.076ms returns FALSE
T2FC4 001:786.289 JLINK_IsHalted()
T2FC4 001:787.353 - 1.087ms returns FALSE
T2FC4 001:789.291 JLINK_IsHalted()
T2FC4 001:790.276 - 1.021ms returns FALSE
T2FC4 001:792.290 JLINK_IsHalted()
T2FC4 001:793.285 - 1.027ms returns FALSE
T2FC4 001:796.295 JLINK_IsHalted()
T2FC4 001:797.297 - 1.041ms returns FALSE
T2FC4 001:800.304 JLINK_IsHalted()
T2FC4 001:801.288 - 1.023ms returns FALSE
T2FC4 001:807.309 JLINK_IsHalted()
T2FC4 001:808.362 - 1.076ms returns FALSE
T2FC4 001:811.295 JLINK_IsHalted()
T2FC4 001:812.344 - 1.069ms returns FALSE
T2FC4 001:814.310 JLINK_IsHalted()
T2FC4 001:815.344 - 1.050ms returns FALSE
T2FC4 001:818.308 JLINK_IsHalted()
T2FC4 001:819.376 - 1.083ms returns FALSE
T2FC4 001:822.293 JLINK_IsHalted()
T2FC4 001:823.312 - 1.058ms returns FALSE
T2FC4 001:826.307 JLINK_IsHalted()
T2FC4 001:827.326 - 1.063ms returns FALSE
T2FC4 001:830.311 JLINK_IsHalted()
T2FC4 001:831.310 - 1.039ms returns FALSE
T2FC4 001:835.326 JLINK_IsHalted()
T2FC4 001:836.365 - 1.077ms returns FALSE
T2FC4 001:840.355 JLINK_IsHalted()
T2FC4 001:841.394 - 1.066ms returns FALSE
T2FC4 001:843.349 JLINK_IsHalted()
T2FC4 001:844.362 - 1.050ms returns FALSE
T2FC4 001:846.358 JLINK_IsHalted()
T2FC4 001:847.401 - 1.068ms returns FALSE
T2FC4 001:851.336 JLINK_IsHalted()
T2FC4 001:852.351 - 1.044ms returns FALSE
T2FC4 001:854.406 JLINK_IsHalted()
T2FC4 001:855.481 - 1.108ms returns FALSE
T2FC4 001:857.332 JLINK_IsHalted()
T2FC4 001:858.400 - 1.091ms returns FALSE
T2FC4 001:860.398 JLINK_IsHalted()
T2FC4 001:861.432 - 1.067ms returns FALSE
T2FC4 001:863.340 JLINK_IsHalted()
T2FC4 001:864.410 - 1.099ms returns FALSE
T2FC4 001:872.418 JLINK_IsHalted()
T2FC4 001:873.507 - 1.124ms returns FALSE
T2FC4 001:875.375 JLINK_IsHalted()
T2FC4 001:876.449 - 1.104ms returns FALSE
T2FC4 001:878.350 JLINK_IsHalted()
T2FC4 001:879.400 - 1.072ms returns FALSE
T2FC4 001:881.423 JLINK_IsHalted()
T2FC4 001:882.500 - 1.098ms returns FALSE
T2FC4 001:884.361 JLINK_IsHalted()
T2FC4 001:885.383 - 1.056ms returns FALSE
T2FC4 001:889.360 JLINK_IsHalted()
T2FC4 001:890.389 - 1.070ms returns FALSE
T2FC4 001:892.422 JLINK_IsHalted()
T2FC4 001:893.376 - 0.995ms returns FALSE
T2FC4 001:896.376 JLINK_IsHalted()
T2FC4 001:907.973    -- CPU_ReadMem(2 bytes @ 0x20000000)
T2FC4 001:908.919 - 12.565ms returns TRUE
T2FC4 001:908.961 JLINK_ReadReg(R15 (PC))
T2FC4 001:908.993 - 0.043ms returns 0x20000000
T2FC4 001:909.019 JLINK_ClrBPEx(BPHandle = 0x00000005)
T2FC4 001:909.043 - 0.035ms returns 0x00
T2FC4 001:909.068 JLINK_ReadReg(R0)
T2FC4 001:909.096 - 0.039ms returns 0x00000000
T2FC4 001:909.612 JLINK_WriteReg(R0, 0x00000001)
T2FC4 001:909.643 - 0.043ms returns 0x00
T2FC4 001:909.668 JLINK_WriteReg(R1, 0x00004000)
T2FC4 001:909.692 - 0.034ms returns 0x00
T2FC4 001:909.716 JLINK_WriteReg(R2, 0x000000FF)
T2FC4 001:909.740 - 0.035ms returns 0x00
T2FC4 001:909.765 JLINK_WriteReg(R3, 0x00000000)
T2FC4 001:909.788 - 0.034ms returns 0x00
T2FC4 001:909.814 JLINK_WriteReg(R4, 0x00000000)
T2FC4 001:909.838 - 0.035ms returns 0x00
T2FC4 001:909.863 JLINK_WriteReg(R5, 0x00000000)
T2FC4 001:909.887 - 0.035ms returns 0x00
T2FC4 001:909.912 JLINK_WriteReg(R6, 0x00000000)
T2FC4 001:909.935 - 0.035ms returns 0x00
T2FC4 001:909.961 JLINK_WriteReg(R7, 0x00000000)
T2FC4 001:909.989 - 0.039ms returns 0x00
T2FC4 001:910.013 JLINK_WriteReg(R8, 0x00000000)
T2FC4 001:910.037 - 0.034ms returns 0x00
T2FC4 001:910.062 JLINK_WriteReg(R9, 0x2000017C)
T2FC4 001:910.096 - 0.045ms returns 0x00
T2FC4 001:910.121 JLINK_WriteReg(R10, 0x00000000)
T2FC4 001:910.144 - 0.034ms returns 0x00
T2FC4 001:910.169 JLINK_WriteReg(R11, 0x00000000)
T2FC4 001:910.192 - 0.034ms returns 0x00
T2FC4 001:910.217 JLINK_WriteReg(R12, 0x00000000)
T2FC4 001:910.240 - 0.034ms returns 0x00
T2FC4 001:910.265 JLINK_WriteReg(R13 (SP), 0x20001000)
T2FC4 001:910.288 - 0.035ms returns 0x00
T2FC4 001:910.313 JLINK_WriteReg(R14, 0x20000001)
T2FC4 001:910.338 - 0.041ms returns 0x00
T2FC4 001:910.377 JLINK_WriteReg(R15 (PC), 0x20000082)
T2FC4 001:910.405 - 0.039ms returns 0x00
T2FC4 001:910.430 JLINK_WriteReg(XPSR, 0x01000000)
T2FC4 001:910.453 - 0.034ms returns 0x00
T2FC4 001:910.478 JLINK_WriteReg(MSP, 0x20001000)
T2FC4 001:910.501 - 0.034ms returns 0x00
T2FC4 001:910.525 JLINK_WriteReg(PSP, 0x20001000)
T2FC4 001:910.549 - 0.034ms returns 0x00
T2FC4 001:910.573 JLINK_WriteReg(CFBP, 0x00000000)
T2FC4 001:910.597 - 0.034ms returns 0x00
T2FC4 001:910.622   JLINK_SetBPEx(Addr = 0x20000000, Type = 0xFFFFFFF2)
T2FC4 001:910.657 - 0.047ms returns 0x00000006
T2FC4 001:910.682 JLINK_Go()
T2FC4 001:910.716    -- CPU_ReadMem(4 bytes @ 0xE0001000)
T2FC4 001:921.908 - 11.258ms
T2FC4 001:921.967 JLINK_IsHalted()
T2FC4 001:933.606    -- CPU_ReadMem(2 bytes @ 0x20000000)
T2FC4 001:934.707 - 12.780ms returns TRUE
T2FC4 001:934.801 JLINK_ReadReg(R15 (PC))
T2FC4 001:934.870 - 0.099ms returns 0x20000000
T2FC4 001:934.941 JLINK_ClrBPEx(BPHandle = 0x00000006)
T2FC4 001:935.004 - 0.091ms returns 0x00
T2FC4 001:935.072 JLINK_ReadReg(R0)
T2FC4 001:935.135 - 0.100ms returns 0x00000000
T2FC4 002:025.440 JLINK_WriteMem(0x20000000, 0x0180 Bytes, ...)
T2FC4 002:025.536   Data:  00 BE 0A E0 0D 78 2D 06 68 40 08 24 40 00 00 D3 ...
T2FC4 002:025.653    -- CPU_WriteMem(384 bytes @ 0x20000000)
T2FC4 002:036.243 - 10.869ms returns 0x180
T2FC4 002:036.539 JLINK_WriteReg(R0, 0x08000000)
T2FC4 002:036.622 - 0.116ms returns 0x00
T2FC4 002:036.689 JLINK_WriteReg(R1, 0x0A037A00)
T2FC4 002:036.750 - 0.091ms returns 0x00
T2FC4 002:036.815 JLINK_WriteReg(R2, 0x00000002)
T2FC4 002:036.887 - 0.101ms returns 0x00
T2FC4 002:036.951 JLINK_WriteReg(R3, 0x00000000)
T2FC4 002:037.011 - 0.089ms returns 0x00
T2FC4 002:037.075 JLINK_WriteReg(R4, 0x00000000)
T2FC4 002:037.135 - 0.089ms returns 0x00
T2FC4 002:037.198 JLINK_WriteReg(R5, 0x00000000)
T2FC4 002:037.258 - 0.089ms returns 0x00
T2FC4 002:037.322 JLINK_WriteReg(R6, 0x00000000)
T2FC4 002:037.381 - 0.088ms returns 0x00
T2FC4 002:037.454 JLINK_WriteReg(R7, 0x00000000)
T2FC4 002:037.529 - 0.104ms returns 0x00
T2FC4 002:037.593 JLINK_WriteReg(R8, 0x00000000)
T2FC4 002:037.653 - 0.089ms returns 0x00
T2FC4 002:037.717 JLINK_WriteReg(R9, 0x2000017C)
T2FC4 002:037.777 - 0.089ms returns 0x00
T2FC4 002:037.840 JLINK_WriteReg(R10, 0x00000000)
T2FC4 002:037.907 - 0.095ms returns 0x00
T2FC4 002:037.971 JLINK_WriteReg(R11, 0x00000000)
T2FC4 002:038.031 - 0.088ms returns 0x00
T2FC4 002:038.094 JLINK_WriteReg(R12, 0x00000000)
T2FC4 002:038.154 - 0.088ms returns 0x00
T2FC4 002:038.217 JLINK_WriteReg(R13 (SP), 0x20001000)
T2FC4 002:038.279 - 0.090ms returns 0x00
T2FC4 002:038.342 JLINK_WriteReg(R14, 0x20000001)
T2FC4 002:038.402 - 0.091ms returns 0x00
T2FC4 002:038.469 JLINK_WriteReg(R15 (PC), 0x20000054)
T2FC4 002:038.535 - 0.110ms returns 0x00
T2FC4 002:038.618 JLINK_WriteReg(XPSR, 0x01000000)
T2FC4 002:038.679 - 0.090ms returns 0x00
T2FC4 002:038.743 JLINK_WriteReg(MSP, 0x20001000)
T2FC4 002:038.803 - 0.089ms returns 0x00
T2FC4 002:038.872 JLINK_WriteReg(PSP, 0x20001000)
T2FC4 002:038.932 - 0.089ms returns 0x00
T2FC4 002:038.995 JLINK_WriteReg(CFBP, 0x00000000)
T2FC4 002:039.055 - 0.089ms returns 0x00
T2FC4 002:039.121   JLINK_SetBPEx(Addr = 0x20000000, Type = 0xFFFFFFF2)
T2FC4 002:039.223    -- CPU_ReadMem(2 bytes @ 0x20000000)
T2FC4 002:040.342 - 1.260ms returns 0x00000007
T2FC4 002:040.424 JLINK_Go()
T2FC4 002:040.525    -- CPU_WriteMem(2 bytes @ 0x20000000)
T2FC4 002:041.673    -- CPU_ReadMem(4 bytes @ 0xE0001000)
T2FC4 002:053.365 - 12.996ms
T2FC4 002:053.471 JLINK_IsHalted()
T2FC4 002:065.176    -- CPU_ReadMem(2 bytes @ 0x20000000)
T2FC4 002:066.274 - 12.840ms returns TRUE
T2FC4 002:066.366 JLINK_ReadReg(R15 (PC))
T2FC4 002:066.432 - 0.099ms returns 0x20000000
T2FC4 002:066.509 JLINK_ClrBPEx(BPHandle = 0x00000007)
T2FC4 002:066.596 - 0.126ms returns 0x00
T2FC4 002:066.688 JLINK_ReadReg(R0)
T2FC4 002:066.775 - 0.116ms returns 0x00000000
T2FC4 002:067.760 JLINK_WriteMem(0x20000180, 0x0400 Bytes, ...)
T2FC4 002:067.834   Data:  60 6A 00 20 9D 01 00 08 9F 23 00 08 0D 1F 00 08 ...
T2FC4 002:067.946    -- CPU_WriteMem(1024 bytes @ 0x20000180)
T2FC4 002:093.850 - 26.147ms returns 0x400
T2FC4 002:093.970 JLINK_WriteReg(R0, 0x08000000)
T2FC4 002:094.042 - 0.116ms returns 0x00
T2FC4 002:094.125 JLINK_WriteReg(R1, 0x00000400)
T2FC4 002:094.187 - 0.090ms returns 0x00
T2FC4 002:094.255 JLINK_WriteReg(R2, 0x20000180)
T2FC4 002:094.317 - 0.090ms returns 0x00
T2FC4 002:094.385 JLINK_WriteReg(R3, 0x00000000)
T2FC4 002:094.446 - 0.097ms returns 0x00
T2FC4 002:094.541 JLINK_WriteReg(R4, 0x00000000)
T2FC4 002:094.627 - 0.130ms returns 0x00
T2FC4 002:094.716 JLINK_WriteReg(R5, 0x00000000)
T2FC4 002:094.792 - 0.106ms returns 0x00
T2FC4 002:094.861 JLINK_WriteReg(R6, 0x00000000)
T2FC4 002:094.923 - 0.090ms returns 0x00
T2FC4 002:094.990 JLINK_WriteReg(R7, 0x00000000)
T2FC4 002:095.050 - 0.090ms returns 0x00
T2FC4 002:095.119 JLINK_WriteReg(R8, 0x00000000)
T2FC4 002:095.188 - 0.097ms returns 0x00
T2FC4 002:095.255 JLINK_WriteReg(R9, 0x2000017C)
T2FC4 002:095.316 - 0.089ms returns 0x00
T2FC4 002:095.383 JLINK_WriteReg(R10, 0x00000000)
T2FC4 002:095.444 - 0.093ms returns 0x00
T2FC4 002:095.516 JLINK_WriteReg(R11, 0x00000000)
T2FC4 002:095.576 - 0.089ms returns 0x00
T2FC4 002:095.643 JLINK_WriteReg(R12, 0x00000000)
T2FC4 002:095.703 - 0.089ms returns 0x00
T2FC4 002:095.771 JLINK_WriteReg(R13 (SP), 0x20001000)
T2FC4 002:095.833 - 0.091ms returns 0x00
T2FC4 002:095.900 JLINK_WriteReg(R14, 0x20000001)
T2FC4 002:095.961 - 0.090ms returns 0x00
T2FC4 002:096.028 JLINK_WriteReg(R15 (PC), 0x20000108)
T2FC4 002:096.089 - 0.090ms returns 0x00
T2FC4 002:096.157 JLINK_WriteReg(XPSR, 0x01000000)
T2FC4 002:096.222 - 0.095ms returns 0x00
T2FC4 002:096.290 JLINK_WriteReg(MSP, 0x20001000)
T2FC4 002:096.351 - 0.090ms returns 0x00
T2FC4 002:096.418 JLINK_WriteReg(PSP, 0x20001000)
T2FC4 002:096.490 - 0.112ms returns 0x00
T2FC4 002:096.571 JLINK_WriteReg(CFBP, 0x00000000)
T2FC4 002:096.633 - 0.091ms returns 0x00
T2FC4 002:096.703   JLINK_SetBPEx(Addr = 0x20000000, Type = 0xFFFFFFF2)
T2FC4 002:096.794 - 0.123ms returns 0x00000008
T2FC4 002:096.863 JLINK_Go()
T2FC4 002:096.946    -- CPU_ReadMem(4 bytes @ 0xE0001000)
T2FC4 002:108.517 - 11.709ms
T2FC4 002:108.623 JLINK_IsHalted()
T2FC4 002:109.754 - 1.169ms returns FALSE
T2FC4 002:224.640 JLINK_IsHalted()
T2FC4 002:236.255    -- CPU_ReadMem(2 bytes @ 0x20000000)
T2FC4 002:237.258 - 12.637ms returns TRUE
T2FC4 002:237.304 JLINK_ReadReg(R15 (PC))
T2FC4 002:237.337 - 0.045ms returns 0x20000000
T2FC4 002:237.366 JLINK_ClrBPEx(BPHandle = 0x00000008)
T2FC4 002:237.392 - 0.036ms returns 0x00
T2FC4 002:237.419 JLINK_ReadReg(R0)
T2FC4 002:237.443 - 0.035ms returns 0x00000000
T2FC4 002:238.222 JLINK_WriteMem(0x20000180, 0x0400 Bytes, ...)
T2FC4 002:238.255   Data:  10 BD C9 6A A1 42 FA D0 10 BD 00 2A F7 D0 01 2A ...
T2FC4 002:238.301    -- CPU_WriteMem(1024 bytes @ 0x20000180)
T2FC4 002:264.090 - 25.931ms returns 0x400
T2FC4 002:264.221 JLINK_WriteReg(R0, 0x08000400)
T2FC4 002:264.293 - 0.118ms returns 0x00
T2FC4 002:264.383 JLINK_WriteReg(R1, 0x00000400)
T2FC4 002:264.450 - 0.097ms returns 0x00
T2FC4 002:264.522 JLINK_WriteReg(R2, 0x20000180)
T2FC4 002:264.620 - 0.149ms returns 0x00
T2FC4 002:264.758 JLINK_WriteReg(R3, 0x00000000)
T2FC4 002:264.841 - 0.113ms returns 0x00
T2FC4 002:264.911 JLINK_WriteReg(R4, 0x00000000)
T2FC4 002:264.973 - 0.090ms returns 0x00
T2FC4 002:265.041 JLINK_WriteReg(R5, 0x00000000)
T2FC4 002:265.102 - 0.090ms returns 0x00
T2FC4 002:265.181 JLINK_WriteReg(R6, 0x00000000)
T2FC4 002:265.251 - 0.100ms returns 0x00
T2FC4 002:265.319 JLINK_WriteReg(R7, 0x00000000)
T2FC4 002:265.380 - 0.090ms returns 0x00
T2FC4 002:265.449 JLINK_WriteReg(R8, 0x00000000)
T2FC4 002:265.519 - 0.099ms returns 0x00
T2FC4 002:265.597 JLINK_WriteReg(R9, 0x2000017C)
T2FC4 002:265.674 - 0.107ms returns 0x00
T2FC4 002:265.742 JLINK_WriteReg(R10, 0x00000000)
T2FC4 002:265.803 - 0.089ms returns 0x00
T2FC4 002:265.870 JLINK_WriteReg(R11, 0x00000000)
T2FC4 002:265.930 - 0.089ms returns 0x00
T2FC4 002:265.998 JLINK_WriteReg(R12, 0x00000000)
T2FC4 002:266.058 - 0.089ms returns 0x00
T2FC4 002:266.125 JLINK_WriteReg(R13 (SP), 0x20001000)
T2FC4 002:266.187 - 0.090ms returns 0x00
T2FC4 002:266.254 JLINK_WriteReg(R14, 0x20000001)
T2FC4 002:266.314 - 0.090ms returns 0x00
T2FC4 002:266.382 JLINK_WriteReg(R15 (PC), 0x20000108)
T2FC4 002:266.443 - 0.090ms returns 0x00
T2FC4 002:266.510 JLINK_WriteReg(XPSR, 0x01000000)
T2FC4 002:266.581 - 0.101ms returns 0x00
T2FC4 002:266.649 JLINK_WriteReg(MSP, 0x20001000)
T2FC4 002:266.709 - 0.090ms returns 0x00
T2FC4 002:266.776 JLINK_WriteReg(PSP, 0x20001000)
T2FC4 002:266.837 - 0.089ms returns 0x00
T2FC4 002:266.904 JLINK_WriteReg(CFBP, 0x00000000)
T2FC4 002:266.966 - 0.090ms returns 0x00
T2FC4 002:267.037   JLINK_SetBPEx(Addr = 0x20000000, Type = 0xFFFFFFF2)
T2FC4 002:267.128 - 0.122ms returns 0x00000009
T2FC4 002:267.196 JLINK_Go()
T2FC4 002:267.279    -- CPU_ReadMem(4 bytes @ 0xE0001000)
T2FC4 002:278.820 - 11.669ms
T2FC4 002:278.916 JLINK_IsHalted()
T2FC4 002:280.011 - 1.134ms returns FALSE
T2FC4 002:344.650 JLINK_IsHalted()
T2FC4 002:356.417    -- CPU_ReadMem(2 bytes @ 0x20000000)
T2FC4 002:357.573 - 12.958ms returns TRUE
T2FC4 002:357.649 JLINK_ReadReg(R15 (PC))
T2FC4 002:357.702 - 0.080ms returns 0x20000000
T2FC4 002:357.753 JLINK_ClrBPEx(BPHandle = 0x00000009)
T2FC4 002:357.790 - 0.052ms returns 0x00
T2FC4 002:357.829 JLINK_ReadReg(R0)
T2FC4 002:357.866 - 0.053ms returns 0x00000000
T2FC4 002:358.945 JLINK_WriteMem(0x20000180, 0x0400 Bytes, ...)
T2FC4 002:358.988   Data:  34 43 04 60 4C 68 E4 00 65 D5 36 4C 26 68 46 F4 ...
T2FC4 002:359.055    -- CPU_WriteMem(1024 bytes @ 0x20000180)
T2FC4 002:384.856 - 25.984ms returns 0x400
T2FC4 002:384.999 JLINK_WriteReg(R0, 0x08000800)
T2FC4 002:385.074 - 0.108ms returns 0x00
T2FC4 002:385.146 JLINK_WriteReg(R1, 0x00000400)
T2FC4 002:385.210 - 0.093ms returns 0x00
T2FC4 002:385.278 JLINK_WriteReg(R2, 0x20000180)
T2FC4 002:385.339 - 0.090ms returns 0x00
T2FC4 002:385.409 JLINK_WriteReg(R3, 0x00000000)
T2FC4 002:385.471 - 0.091ms returns 0x00
T2FC4 002:385.540 JLINK_WriteReg(R4, 0x00000000)
T2FC4 002:385.601 - 0.091ms returns 0x00
T2FC4 002:385.679 JLINK_WriteReg(R5, 0x00000000)
T2FC4 002:385.771 - 0.123ms returns 0x00
T2FC4 002:385.842 JLINK_WriteReg(R6, 0x00000000)
T2FC4 002:385.903 - 0.090ms returns 0x00
T2FC4 002:385.971 JLINK_WriteReg(R7, 0x00000000)
T2FC4 002:386.032 - 0.090ms returns 0x00
T2FC4 002:386.101 JLINK_WriteReg(R8, 0x00000000)
T2FC4 002:386.162 - 0.090ms returns 0x00
T2FC4 002:386.231 JLINK_WriteReg(R9, 0x2000017C)
T2FC4 002:386.291 - 0.089ms returns 0x00
T2FC4 002:386.359 JLINK_WriteReg(R10, 0x00000000)
T2FC4 002:386.419 - 0.089ms returns 0x00
T2FC4 002:386.486 JLINK_WriteReg(R11, 0x00000000)
T2FC4 002:386.567 - 0.115ms returns 0x00
T2FC4 002:386.667 JLINK_WriteReg(R12, 0x00000000)
T2FC4 002:386.748 - 0.112ms returns 0x00
T2FC4 002:386.817 JLINK_WriteReg(R13 (SP), 0x20001000)
T2FC4 002:386.888 - 0.100ms returns 0x00
T2FC4 002:386.956 JLINK_WriteReg(R14, 0x20000001)
T2FC4 002:387.016 - 0.089ms returns 0x00
T2FC4 002:387.083 JLINK_WriteReg(R15 (PC), 0x20000108)
T2FC4 002:387.143 - 0.090ms returns 0x00
T2FC4 002:387.211 JLINK_WriteReg(XPSR, 0x01000000)
T2FC4 002:387.271 - 0.089ms returns 0x00
T2FC4 002:387.338 JLINK_WriteReg(MSP, 0x20001000)
T2FC4 002:387.398 - 0.089ms returns 0x00
T2FC4 002:387.466 JLINK_WriteReg(PSP, 0x20001000)
T2FC4 002:387.526 - 0.088ms returns 0x00
T2FC4 002:387.594 JLINK_WriteReg(CFBP, 0x00000000)
T2FC4 002:387.668 - 0.113ms returns 0x00
T2FC4 002:387.750   JLINK_SetBPEx(Addr = 0x20000000, Type = 0xFFFFFFF2)
T2FC4 002:387.840 - 0.121ms returns 0x0000000A
T2FC4 002:387.915 JLINK_Go()
T2FC4 002:387.999    -- CPU_ReadMem(4 bytes @ 0xE0001000)
T2FC4 002:399.518 - 11.647ms
T2FC4 002:399.614 JLINK_IsHalted()
T2FC4 002:400.790 - 1.215ms returns FALSE
T2FC4 002:466.786 JLINK_IsHalted()
T2FC4 002:478.368    -- CPU_ReadMem(2 bytes @ 0x20000000)
T2FC4 002:479.311 - 12.545ms returns TRUE
T2FC4 002:479.357 JLINK_ReadReg(R15 (PC))
T2FC4 002:479.390 - 0.045ms returns 0x20000000
T2FC4 002:479.419 JLINK_ClrBPEx(BPHandle = 0x0000000A)
T2FC4 002:479.449 - 0.042ms returns 0x00
T2FC4 002:479.477 JLINK_ReadReg(R0)
T2FC4 002:479.502 - 0.035ms returns 0x00000000
T2FC4 002:480.267 JLINK_WriteMem(0x20000180, 0x0400 Bytes, ...)
T2FC4 002:480.298   Data:  5B 02 07 D5 20 68 C0 F3 88 10 A0 FB 01 01 06 E0 ...
T2FC4 002:480.344    -- CPU_WriteMem(1024 bytes @ 0x20000180)
T2FC4 002:506.033 - 25.824ms returns 0x400
T2FC4 002:506.264 JLINK_WriteReg(R0, 0x08000C00)
T2FC4 002:506.348 - 0.119ms returns 0x00
T2FC4 002:506.418 JLINK_WriteReg(R1, 0x00000400)
T2FC4 002:506.480 - 0.091ms returns 0x00
T2FC4 002:506.545 JLINK_WriteReg(R2, 0x20000180)
T2FC4 002:506.607 - 0.091ms returns 0x00
T2FC4 002:506.670 JLINK_WriteReg(R3, 0x00000000)
T2FC4 002:506.731 - 0.101ms returns 0x00
T2FC4 002:506.813 JLINK_WriteReg(R4, 0x00000000)
T2FC4 002:506.874 - 0.091ms returns 0x00
T2FC4 002:506.938 JLINK_WriteReg(R5, 0x00000000)
T2FC4 002:506.998 - 0.090ms returns 0x00
T2FC4 002:507.062 JLINK_WriteReg(R6, 0x00000000)
T2FC4 002:507.133 - 0.101ms returns 0x00
T2FC4 002:507.197 JLINK_WriteReg(R7, 0x00000000)
T2FC4 002:507.257 - 0.089ms returns 0x00
T2FC4 002:507.321 JLINK_WriteReg(R8, 0x00000000)
T2FC4 002:507.381 - 0.089ms returns 0x00
